Title: simul16-dec-2025_13-14-39.cir
Date: Tue Dec 16 13:14:48  2025
Plotname: AC Analysis
Flags: complex
No. Variables: 738
No. Points: 1
Variables:
	0	frequency	frequency grid=3
	1	v(1)	voltage
	2	v(2)	voltage
	3	v(3)	voltage
	4	v(4)	voltage
	5	v(5)	voltage
	6	v(6)	voltage
	7	v(7)	voltage
	8	v(8)	voltage
	9	v(9)	voltage
	10	v(10)	voltage
	11	v(11)	voltage
	12	v(12)	voltage
	13	v(13)	voltage
	14	v(14)	voltage
	15	v(15)	voltage
	16	v(16)	voltage
	17	v(17)	voltage
	18	v(18)	voltage
	19	v(19)	voltage
	20	v(20)	voltage
	21	v(21)	voltage
	22	v(22)	voltage
	23	v(23)	voltage
	24	v(24)	voltage
	25	v(25)	voltage
	26	v(26)	voltage
	27	v(27)	voltage
	28	v(28)	voltage
	29	v(29)	voltage
	30	v(30)	voltage
	31	v(31)	voltage
	32	v(32)	voltage
	33	v(33)	voltage
	34	v(34)	voltage
	35	v(35)	voltage
	36	v(36)	voltage
	37	v(37)	voltage
	38	v(38)	voltage
	39	v(39)	voltage
	40	v(40)	voltage
	41	v(41)	voltage
	42	v(42)	voltage
	43	v(43)	voltage
	44	v(44)	voltage
	45	v(45)	voltage
	46	v(46)	voltage
	47	v(47)	voltage
	48	v(48)	voltage
	49	v(49)	voltage
	50	v(50)	voltage
	51	v(51)	voltage
	52	v(52)	voltage
	53	v(53)	voltage
	54	v(54)	voltage
	55	v(55)	voltage
	56	v(56)	voltage
	57	v(57)	voltage
	58	v(58)	voltage
	59	v(59)	voltage
	60	v(60)	voltage
	61	v(61)	voltage
	62	v(62)	voltage
	63	v(63)	voltage
	64	v(64)	voltage
	65	v(65)	voltage
	66	v(66)	voltage
	67	v(67)	voltage
	68	v(68)	voltage
	69	v(69)	voltage
	70	v(70)	voltage
	71	v(71)	voltage
	72	v(72)	voltage
	73	v(73)	voltage
	74	v(74)	voltage
	75	v(75)	voltage
	76	v(76)	voltage
	77	v(77)	voltage
	78	v(78)	voltage
	79	v(79)	voltage
	80	v(80)	voltage
	81	v(81)	voltage
	82	v(82)	voltage
	83	v(83)	voltage
	84	v(84)	voltage
	85	v(85)	voltage
	86	v(86)	voltage
	87	v(87)	voltage
	88	v(88)	voltage
	89	v(89)	voltage
	90	v(90)	voltage
	91	v(91)	voltage
	92	v(92)	voltage
	93	v(93)	voltage
	94	v(94)	voltage
	95	v(95)	voltage
	96	v(96)	voltage
	97	v(97)	voltage
	98	v(98)	voltage
	99	v(99)	voltage
	100	v(100)	voltage
	101	v(101)	voltage
	102	v(102)	voltage
	103	v(103)	voltage
	104	v(104)	voltage
	105	v(105)	voltage
	106	v(106)	voltage
	107	v(107)	voltage
	108	v(108)	voltage
	109	v(109)	voltage
	110	v(110)	voltage
	111	v(111)	voltage
	112	v(112)	voltage
	113	v(113)	voltage
	114	v(114)	voltage
	115	v(115)	voltage
	116	v(116)	voltage
	117	v(117)	voltage
	118	v(118)	voltage
	119	v(119)	voltage
	120	v(120)	voltage
	121	v(121)	voltage
	122	v(122)	voltage
	123	v(123)	voltage
	124	v(124)	voltage
	125	v(125)	voltage
	126	v(126)	voltage
	127	v(127)	voltage
	128	v(128)	voltage
	129	v(129)	voltage
	130	v(130)	voltage
	131	v(131)	voltage
	132	v(132)	voltage
	133	v(133)	voltage
	134	v(134)	voltage
	135	v(135)	voltage
	136	v(136)	voltage
	137	v(137)	voltage
	138	v(138)	voltage
	139	v(139)	voltage
	140	v(140)	voltage
	141	v(141)	voltage
	142	v(142)	voltage
	143	v(143)	voltage
	144	v(144)	voltage
	145	v(145)	voltage
	146	v(146)	voltage
	147	v(147)	voltage
	148	v(148)	voltage
	149	v(149)	voltage
	150	v(150)	voltage
	151	v(151)	voltage
	152	v(152)	voltage
	153	v(153)	voltage
	154	v(154)	voltage
	155	v(155)	voltage
	156	v(156)	voltage
	157	v(157)	voltage
	158	v(158)	voltage
	159	v(159)	voltage
	160	v(160)	voltage
	161	v(161)	voltage
	162	v(162)	voltage
	163	v(163)	voltage
	164	v(164)	voltage
	165	v(165)	voltage
	166	v(166)	voltage
	167	v(167)	voltage
	168	v(168)	voltage
	169	v(169)	voltage
	170	v(170)	voltage
	171	v(171)	voltage
	172	v(172)	voltage
	173	v(173)	voltage
	174	v(174)	voltage
	175	v(175)	voltage
	176	v(176)	voltage
	177	v(177)	voltage
	178	v(178)	voltage
	179	v(179)	voltage
	180	v(180)	voltage
	181	v(181)	voltage
	182	v(182)	voltage
	183	v(183)	voltage
	184	v(184)	voltage
	185	v(185)	voltage
	186	v(186)	voltage
	187	v(187)	voltage
	188	v(188)	voltage
	189	v(189)	voltage
	190	v(190)	voltage
	191	v(191)	voltage
	192	v(192)	voltage
	193	v(193)	voltage
	194	v(194)	voltage
	195	v(195)	voltage
	196	v(196)	voltage
	197	v(197)	voltage
	198	v(198)	voltage
	199	v(199)	voltage
	200	v(200)	voltage
	201	v(201)	voltage
	202	v(202)	voltage
	203	v(203)	voltage
	204	v(204)	voltage
	205	v(205)	voltage
	206	v(206)	voltage
	207	v(207)	voltage
	208	v(208)	voltage
	209	v(209)	voltage
	210	v(210)	voltage
	211	v(211)	voltage
	212	v(212)	voltage
	213	v(213)	voltage
	214	v(214)	voltage
	215	v(215)	voltage
	216	v(216)	voltage
	217	v(217)	voltage
	218	v(218)	voltage
	219	v(219)	voltage
	220	v(220)	voltage
	221	v(221)	voltage
	222	v(222)	voltage
	223	v(223)	voltage
	224	v(224)	voltage
	225	v(225)	voltage
	226	v(226)	voltage
	227	v(227)	voltage
	228	v(228)	voltage
	229	v(229)	voltage
	230	v(230)	voltage
	231	v(231)	voltage
	232	v(232)	voltage
	233	v(233)	voltage
	234	v(234)	voltage
	235	v(235)	voltage
	236	v(236)	voltage
	237	v(237)	voltage
	238	v(238)	voltage
	239	v(239)	voltage
	240	v(240)	voltage
	241	v(241)	voltage
	242	v(242)	voltage
	243	v(243)	voltage
	244	v(244)	voltage
	245	v(245)	voltage
	246	v(246)	voltage
	247	v(247)	voltage
	248	v(248)	voltage
	249	v(249)	voltage
	250	v(250)	voltage
	251	v(251)	voltage
	252	v(252)	voltage
	253	v(253)	voltage
	254	v(254)	voltage
	255	v(255)	voltage
	256	v(256)	voltage
	257	v(257)	voltage
	258	v(258)	voltage
	259	v(259)	voltage
	260	v(260)	voltage
	261	v(261)	voltage
	262	v(262)	voltage
	263	v(263)	voltage
	264	v(264)	voltage
	265	v(265)	voltage
	266	v(266)	voltage
	267	v(267)	voltage
	268	v(268)	voltage
	269	v(269)	voltage
	270	v(270)	voltage
	271	v(271)	voltage
	272	v(272)	voltage
	273	v(273)	voltage
	274	v(274)	voltage
	275	v(275)	voltage
	276	v(276)	voltage
	277	v(277)	voltage
	278	v(278)	voltage
	279	v(279)	voltage
	280	v(280)	voltage
	281	v(281)	voltage
	282	v(282)	voltage
	283	v(283)	voltage
	284	v(284)	voltage
	285	v(285)	voltage
	286	v(286)	voltage
	287	v(287)	voltage
	288	v(288)	voltage
	289	v(289)	voltage
	290	v(290)	voltage
	291	v(291)	voltage
	292	v(292)	voltage
	293	v(293)	voltage
	294	v(294)	voltage
	295	v(295)	voltage
	296	v(296)	voltage
	297	v(297)	voltage
	298	v(298)	voltage
	299	v(299)	voltage
	300	v(300)	voltage
	301	v(301)	voltage
	302	v(302)	voltage
	303	v(303)	voltage
	304	v(304)	voltage
	305	v(305)	voltage
	306	v(306)	voltage
	307	v(307)	voltage
	308	v(308)	voltage
	309	v(309)	voltage
	310	v(310)	voltage
	311	v(311)	voltage
	312	v(312)	voltage
	313	v(313)	voltage
	314	v(314)	voltage
	315	v(315)	voltage
	316	v(316)	voltage
	317	v(317)	voltage
	318	v(318)	voltage
	319	v(319)	voltage
	320	v(320)	voltage
	321	v(321)	voltage
	322	v(322)	voltage
	323	v(323)	voltage
	324	v(324)	voltage
	325	v(325)	voltage
	326	v(326)	voltage
	327	v(327)	voltage
	328	v(328)	voltage
	329	v(329)	voltage
	330	v(330)	voltage
	331	v(331)	voltage
	332	v(332)	voltage
	333	v(333)	voltage
	334	v(334)	voltage
	335	v(335)	voltage
	336	v(336)	voltage
	337	v(337)	voltage
	338	v(338)	voltage
	339	v(339)	voltage
	340	v(340)	voltage
	341	v(341)	voltage
	342	v(342)	voltage
	343	v(343)	voltage
	344	v(344)	voltage
	345	v(345)	voltage
	346	v(346)	voltage
	347	v(347)	voltage
	348	v(348)	voltage
	349	v(349)	voltage
	350	v(350)	voltage
	351	v(351)	voltage
	352	v(352)	voltage
	353	v(353)	voltage
	354	v(354)	voltage
	355	v(355)	voltage
	356	v(356)	voltage
	357	v(357)	voltage
	358	v(358)	voltage
	359	v(359)	voltage
	360	v(360)	voltage
	361	v(361)	voltage
	362	v(362)	voltage
	363	v(363)	voltage
	364	v(364)	voltage
	365	v(365)	voltage
	366	v(366)	voltage
	367	v(367)	voltage
	368	v(368)	voltage
	369	v(369)	voltage
	370	v(370)	voltage
	371	v(371)	voltage
	372	v(372)	voltage
	373	v(373)	voltage
	374	v(374)	voltage
	375	v(375)	voltage
	376	v(376)	voltage
	377	v(377)	voltage
	378	v(378)	voltage
	379	v(379)	voltage
	380	v(380)	voltage
	381	v(381)	voltage
	382	v(382)	voltage
	383	v(383)	voltage
	384	v(384)	voltage
	385	v(385)	voltage
	386	v(386)	voltage
	387	v(387)	voltage
	388	v(388)	voltage
	389	v(389)	voltage
	390	v(390)	voltage
	391	v(391)	voltage
	392	v(392)	voltage
	393	v(393)	voltage
	394	v(394)	voltage
	395	v(395)	voltage
	396	v(396)	voltage
	397	v(397)	voltage
	398	v(398)	voltage
	399	v(399)	voltage
	400	v(400)	voltage
	401	v(401)	voltage
	402	v(402)	voltage
	403	v(403)	voltage
	404	v(404)	voltage
	405	v(405)	voltage
	406	v(406)	voltage
	407	v(407)	voltage
	408	v(408)	voltage
	409	v(409)	voltage
	410	v(410)	voltage
	411	v(411)	voltage
	412	v(412)	voltage
	413	v(413)	voltage
	414	v(414)	voltage
	415	v(415)	voltage
	416	v(416)	voltage
	417	v(417)	voltage
	418	v(418)	voltage
	419	v(419)	voltage
	420	v(420)	voltage
	421	v(421)	voltage
	422	v(422)	voltage
	423	v(423)	voltage
	424	v(424)	voltage
	425	v(425)	voltage
	426	v(426)	voltage
	427	v(427)	voltage
	428	v(428)	voltage
	429	v(429)	voltage
	430	v(430)	voltage
	431	v(431)	voltage
	432	v(432)	voltage
	433	v(433)	voltage
	434	v(434)	voltage
	435	v(435)	voltage
	436	v(436)	voltage
	437	v(437)	voltage
	438	v(438)	voltage
	439	v(439)	voltage
	440	v(440)	voltage
	441	v(441)	voltage
	442	v(442)	voltage
	443	v(443)	voltage
	444	v(444)	voltage
	445	v(445)	voltage
	446	v(446)	voltage
	447	v(447)	voltage
	448	v(448)	voltage
	449	v(449)	voltage
	450	v(450)	voltage
	451	v(451)	voltage
	452	v(452)	voltage
	453	v(453)	voltage
	454	v(454)	voltage
	455	v(455)	voltage
	456	v(456)	voltage
	457	v(457)	voltage
	458	v(458)	voltage
	459	v(459)	voltage
	460	v(460)	voltage
	461	v(461)	voltage
	462	v(462)	voltage
	463	v(463)	voltage
	464	v(464)	voltage
	465	v(465)	voltage
	466	v(466)	voltage
	467	v(467)	voltage
	468	v(468)	voltage
	469	v(469)	voltage
	470	v(470)	voltage
	471	v(471)	voltage
	472	v(472)	voltage
	473	v(473)	voltage
	474	v(474)	voltage
	475	v(475)	voltage
	476	v(476)	voltage
	477	v(477)	voltage
	478	v(478)	voltage
	479	v(479)	voltage
	480	v(480)	voltage
	481	v(481)	voltage
	482	v(482)	voltage
	483	v(483)	voltage
	484	v(484)	voltage
	485	v(485)	voltage
	486	v(486)	voltage
	487	v(487)	voltage
	488	v(488)	voltage
	489	v(489)	voltage
	490	v(490)	voltage
	491	v(491)	voltage
	492	v(492)	voltage
	493	v(493)	voltage
	494	v(494)	voltage
	495	v(495)	voltage
	496	v(496)	voltage
	497	v(497)	voltage
	498	v(498)	voltage
	499	v(499)	voltage
	500	v(500)	voltage
	501	v(501)	voltage
	502	v(502)	voltage
	503	v(503)	voltage
	504	v(504)	voltage
	505	v(505)	voltage
	506	v(506)	voltage
	507	v(507)	voltage
	508	v(508)	voltage
	509	v(509)	voltage
	510	v(510)	voltage
	511	v(511)	voltage
	512	v(512)	voltage
	513	v(513)	voltage
	514	v(514)	voltage
	515	v(515)	voltage
	516	v(516)	voltage
	517	v(517)	voltage
	518	v(518)	voltage
	519	v(519)	voltage
	520	v(520)	voltage
	521	v(521)	voltage
	522	v(522)	voltage
	523	v(523)	voltage
	524	v(524)	voltage
	525	v(525)	voltage
	526	v(526)	voltage
	527	v(527)	voltage
	528	v(528)	voltage
	529	v(529)	voltage
	530	v(530)	voltage
	531	v(531)	voltage
	532	v(532)	voltage
	533	v(533)	voltage
	534	v(534)	voltage
	535	v(535)	voltage
	536	v(536)	voltage
	537	v(537)	voltage
	538	v(538)	voltage
	539	v(539)	voltage
	540	v(540)	voltage
	541	v(541)	voltage
	542	v(542)	voltage
	543	v(543)	voltage
	544	v(544)	voltage
	545	v(545)	voltage
	546	v(546)	voltage
	547	v(547)	voltage
	548	v(548)	voltage
	549	v(549)	voltage
	550	v(550)	voltage
	551	v(551)	voltage
	552	v(552)	voltage
	553	v(553)	voltage
	554	v(554)	voltage
	555	v(555)	voltage
	556	v(556)	voltage
	557	v(557)	voltage
	558	v(558)	voltage
	559	v(559)	voltage
	560	v(560)	voltage
	561	v(561)	voltage
	562	v(562)	voltage
	563	v(563)	voltage
	564	v(564)	voltage
	565	v(565)	voltage
	566	v(566)	voltage
	567	v(567)	voltage
	568	v(568)	voltage
	569	v(569)	voltage
	570	v(570)	voltage
	571	v(571)	voltage
	572	v(572)	voltage
	573	v(573)	voltage
	574	v(574)	voltage
	575	v(575)	voltage
	576	v(576)	voltage
	577	v(577)	voltage
	578	v(578)	voltage
	579	v(579)	voltage
	580	v(580)	voltage
	581	v(581)	voltage
	582	v(582)	voltage
	583	v(583)	voltage
	584	v(584)	voltage
	585	v(585)	voltage
	586	v(586)	voltage
	587	v(587)	voltage
	588	v(588)	voltage
	589	v(589)	voltage
	590	v(590)	voltage
	591	v(591)	voltage
	592	v(592)	voltage
	593	v(593)	voltage
	594	v(594)	voltage
	595	v(595)	voltage
	596	v(596)	voltage
	597	v(597)	voltage
	598	v(598)	voltage
	599	v(599)	voltage
	600	v(600)	voltage
	601	v(601)	voltage
	602	v(602)	voltage
	603	v(603)	voltage
	604	v(604)	voltage
	605	v(605)	voltage
	606	v(606)	voltage
	607	v(607)	voltage
	608	v(608)	voltage
	609	v(609)	voltage
	610	v(610)	voltage
	611	v(611)	voltage
	612	v(612)	voltage
	613	v(613)	voltage
	614	v(614)	voltage
	615	v(615)	voltage
	616	v(616)	voltage
	617	v(617)	voltage
	618	v(618)	voltage
	619	v(619)	voltage
	620	v(620)	voltage
	621	v(621)	voltage
	622	v(622)	voltage
	623	v(623)	voltage
	624	v(624)	voltage
	625	v(625)	voltage
	626	v(626)	voltage
	627	v(627)	voltage
	628	v(628)	voltage
	629	v(629)	voltage
	630	v(630)	voltage
	631	v(631)	voltage
	632	v(632)	voltage
	633	v(633)	voltage
	634	v(634)	voltage
	635	v(635)	voltage
	636	v(636)	voltage
	637	v(637)	voltage
	638	v(638)	voltage
	639	v(639)	voltage
	640	v(640)	voltage
	641	v(641)	voltage
	642	v(642)	voltage
	643	v(643)	voltage
	644	v(644)	voltage
	645	v(645)	voltage
	646	v(646)	voltage
	647	v(647)	voltage
	648	v(648)	voltage
	649	v(649)	voltage
	650	v(650)	voltage
	651	v(651)	voltage
	652	v(652)	voltage
	653	v(653)	voltage
	654	v(654)	voltage
	655	v(655)	voltage
	656	v(656)	voltage
	657	v(657)	voltage
	658	v(658)	voltage
	659	v(659)	voltage
	660	v(660)	voltage
	661	v(661)	voltage
	662	v(662)	voltage
	663	v(663)	voltage
	664	v(664)	voltage
	665	v(665)	voltage
	666	v(666)	voltage
	667	v(667)	voltage
	668	v(668)	voltage
	669	v(669)	voltage
	670	v(670)	voltage
	671	v(671)	voltage
	672	v(672)	voltage
	673	v(673)	voltage
	674	v(674)	voltage
	675	v(675)	voltage
	676	v(676)	voltage
	677	v(677)	voltage
	678	v(678)	voltage
	679	v(679)	voltage
	680	v(680)	voltage
	681	v(681)	voltage
	682	v(682)	voltage
	683	v(683)	voltage
	684	v(684)	voltage
	685	v(685)	voltage
	686	v(686)	voltage
	687	v(687)	voltage
	688	v(688)	voltage
	689	v(689)	voltage
	690	v(690)	voltage
	691	v(691)	voltage
	692	v(692)	voltage
	693	v(693)	voltage
	694	v(694)	voltage
	695	v(695)	voltage
	696	v(696)	voltage
	697	v(697)	voltage
	698	v(698)	voltage
	699	v(699)	voltage
	700	v(700)	voltage
	701	v(701)	voltage
	702	v(702)	voltage
	703	v(703)	voltage
	704	v(704)	voltage
	705	v(705)	voltage
	706	v(706)	voltage
	707	v(707)	voltage
	708	v(708)	voltage
	709	v(709)	voltage
	710	v(710)	voltage
	711	v(711)	voltage
	712	v(712)	voltage
	713	v(713)	voltage
	714	v(714)	voltage
	715	v(715)	voltage
	716	v(716)	voltage
	717	v(717)	voltage
	718	v(718)	voltage
	719	v(719)	voltage
	720	v(720)	voltage
	721	v(721)	voltage
	722	v(722)	voltage
	723	v(723)	voltage
	724	v(724)	voltage
	725	v(725)	voltage
	726	v(726)	voltage
	727	v(727)	voltage
	728	v(728)	voltage
	729	v(729)	voltage
	730	v(730)	voltage
	731	v(731)	voltage
	732	v(732)	voltage
	733	v(733)	voltage
	734	v(734)	voltage
	735	v(735)	voltage
	736	v(736)	voltage
	737	i(vin)	current
Values:
 0	1.000000000000000e+03,0.000000000000000e+00
	4.745786212690900e-08,2.640194634104227e-10
	4.745474342142186e-08,2.640021133042429e-10
	4.745809123692546e-08,2.640207380043583e-10
	4.745655676243902e-08,2.640122013549749e-10
	4.745664904723519e-08,2.640127147574110e-10
	4.745808654322556e-08,2.640207118921802e-10
	4.745890489288855e-08,2.640252645675170e-10
	4.745795959504346e-08,2.640200056490115e-10
	4.745827453822706e-08,2.640217577534436e-10
	4.745655008877162e-08,2.640121642277888e-10
	4.745797561465838e-08,2.640200947700022e-10
	4.744985430496535e-08,2.639749139774549e-10
	4.745082177531893e-08,2.639802962469564e-10
	4.743277628448172e-08,2.638799048557443e-10
	4.742266452537717e-08,2.638236507159076e-10
	4.744580050464873e-08,2.639523617145900e-10
	4.743808524116766e-08,2.639094398544178e-10
	4.744926226399457e-08,2.639716203116526e-10
	4.745429318768309e-08,2.639996085460366e-10
	4.743779212886521e-08,2.639078092004051e-10
	4.744476162522134e-08,2.639465821792826e-10
	4.745630944691320e-08,2.640108254794323e-10
	4.745884084468212e-08,2.640249082519939e-10
	4.745776979855552e-08,2.640189497656788e-10
	4.745989018523011e-08,2.640307459849900e-10
	2.604669545496749e-03,2.364900628686647e-10
	4.745882515631465e-08,2.640248209738624e-10
	4.745013740645191e-08,2.639764889389021e-10
	4.743522985408449e-08,2.638935546516074e-10
	4.743965384344272e-08,2.639181663648902e-10
	4.743939286235824e-08,2.639167144645722e-10
	4.745014974950000e-08,2.639765576062217e-10
	4.745852720573408e-08,2.640231634033338e-10
	1.861885573725103e-03,2.443328355720422e-10
	2.203137141773788e-03,2.407326897485660e-10
	1.308648606839322e-03,2.501707172064271e-10
	2.160307487420660e-03,2.411813452281372e-10
	4.612179967608437e-03,2.152719270108122e-10
	4.745670854629146e-08,2.640130457649566e-10
	4.745554637259850e-08,2.640065803141299e-10
	4.745064914017590e-08,2.639793358362890e-10
	4.745111460486729e-08,2.639819253279396e-10
	4.745876063486875e-08,2.640244620256056e-10
	4.743589229312582e-08,2.638972399588115e-10
	4.744540755584130e-08,2.639501756461901e-10
	4.744091225700615e-08,2.639251672212060e-10
	4.744880485503012e-08,2.639690756359605e-10
	4.745166468255501e-08,2.639849855419673e-10
	1.605313131495420e-03,2.470125208702322e-10
	4.743813509347227e-08,2.639097171947477e-10
	4.744525613220085e-08,2.639493332401975e-10
	4.744006919030347e-08,2.639204770390465e-10
	4.745018875081148e-08,2.639767745799269e-10
	4.745130108327756e-08,2.639829627520715e-10
	4.744053610241398e-08,2.639230745830525e-10
	4.744684193103398e-08,2.639581554192333e-10
	4.745175696236808e-08,2.639854989167277e-10
	4.745283317338244e-08,2.639914861365776e-10
	4.745179837651981e-08,2.639857293135765e-10
	5.499326958769692e-03,2.058982657038129e-10
	6.630113947733120e-03,1.939491317708825e-10
	6.089830010233102e-03,1.996568561001472e-10
	3.435142971064057e-03,2.276955915964331e-10
	5.402347252327308e-03,2.069194066466285e-10
	4.683686696824985e-04,2.590699538395459e-10
	1.326543681537453e-03,2.499821995677234e-10
	4.624414772436205e-03,2.151430319307318e-10
	4.599514018399660e-03,2.154074697580983e-10
	4.744231778349520e-08,2.639329865019749e-10
	4.745781737300456e-08,2.640192144337307e-10
	2.586764281810453e-03,2.366763840308165e-10
	3.110351553231223e-03,2.311432670244670e-10
	7.051760450299770e-03,1.894943420949121e-10
	3.639132262551833e-03,2.255565188874363e-10
	4.744101784839010e-08,2.639257546513968e-10
	4.744988066016228e-08,2.639750605977827e-10
	4.744948385628854e-08,2.639728530827095e-10
	4.831954447336697e-04,2.588670461219991e-10
	2.492079124671956e-04,2.612786487435703e-10
	6.465202533460485e-04,2.570974242148856e-10
	3.691988863933791e-04,2.600306783699925e-10
	9.820854778043956e-04,2.535835246666825e-10
	1.142877372864317e-03,2.518585153471671e-10
	2.462394063701565e-03,2.379632789186228e-10
	2.848941787360309e-03,2.338968584532168e-10
	4.207210683725183e-03,2.195473803220470e-10
	4.759647630887835e-03,2.137027736403448e-10
	4.744653068597791e-08,2.639564238883698e-10
	4.745065507890775e-08,2.639793688748879e-10
	2.042153493405702e-03,2.424276932726330e-10
	4.745730785969000e-08,2.640163798890580e-10
	2.870343360320837e-03,2.336688679338143e-10
	3.201746883712043e-03,2.301758370536682e-10
	5.172840940473475e-03,2.093475793336176e-10
	3.835804571755729e-03,2.234763001741176e-10
	4.745418009827278e-08,2.639989794025963e-10
	4.745372141096784e-08,2.639964276151794e-10
	4.745425109307753e-08,2.639993743637256e-10
	4.745474088699449e-08,2.640020992046927e-10
	4.744095001830006e-08,2.639253772963437e-10
	4.745059972333655e-08,2.639790609185931e-10
	4.745343586180775e-08,2.639948390367543e-10
	4.745187833258779e-08,2.639861741283563e-10
	4.745233392723274e-08,2.639887087105752e-10
	4.745387426377508e-08,2.639972779719888e-10
	4.744961847622702e-08,2.639736020057164e-10
	4.745299577479112e-08,2.639923907271885e-10
	2.924397832011906e-03,2.330752594766553e-10
	4.466625559504367e-03,2.167920486470088e-10
	2.467110264076944e-03,2.379114808246853e-10
	3.190728285125493e-03,2.302713706829999e-10
	4.745082957517573e-08,2.639803396394785e-10
	2.629011001178711e-03,2.361931476177152e-10
	4.744586715278336e-08,2.639527324941765e-10
	4.745187175783380e-08,2.639861375514243e-10
	1.192924501390971e-03,2.513755206374914e-10
